
T059C 000:302 SEGGER J-Link V4.96d Log File (0000ms, 0272ms total)
T059C 000:302 DLL Compiled: Jan 29 2015 11:45:37 (0000ms, 0272ms total)
T059C 000:302 Logging started @ 2022-08-03 17:02 (0000ms, 0272ms total)
T059C 000:302 JLINK_SetWarnOutHandler(...) (0000ms, 0272ms total)
T059C 000:302 JLINK_OpenEx(...)
Firmware: J-Link V9 compiled Oct 25 2018 11:46:07
Hardware: V9.30
S/N: 36310083
Feature(s): RDI, GDB, FlashDL, FlashBP, JFlash  returns O.K. (0270ms, 0542ms total)
T059C 000:572 JLINK_SetErrorOutHandler(...) (0000ms, 0542ms total)
T059C 000:572 JLINK_ExecCommand("ProjectFile = "E:\sync\SynologyDrive\work\democode\CS32F10\CS32F03X\CS32F03X\Chipsea.CS32F0xx_DFP.1.0.5\Boards\EVB_32F03x_START\EVB_32F03x_START_DEMO\source\GW_ad_sync_select_band_v1.0_4g_more_freq\JLinkSettings.ini"", ...)Device "CORTEX-M0" selected.  returns 0x00 (0002ms, 0544ms total)
T059C 000:577 JLINK_ExecCommand("Device = CS32F031K8U6", ...)Device "CORTEX-M0" selected.  returns 0x00 (0007ms, 0551ms total)
T059C 000:584 JLINK_ExecCommand("DisableConnectionTimeout", ...)  returns 0x01 (0000ms, 0551ms total)
T059C 000:584 JLINK_GetHardwareVersion()  returns 0x16B48 (0000ms, 0551ms total)
T059C 000:584 JLINK_GetDLLVersion()  returns 49604 (0000ms, 0551ms total)
T059C 000:584 JLINK_GetFirmwareString(...) (0000ms, 0551ms total)
T059C 000:592 JLINK_GetDLLVersion()  returns 49604 (0000ms, 0551ms total)
T059C 000:592 JLINK_GetCompileDateTime() (0000ms, 0551ms total)
T059C 000:594 JLINK_GetFirmwareString(...) (0000ms, 0551ms total)
T059C 000:596 JLINK_GetHardwareVersion()  returns 0x16B48 (0000ms, 0551ms total)
T059C 000:604 JLINK_TIF_Select(JLINKARM_TIF_SWD)  returns 0x00 (0001ms, 0552ms total)
T059C 000:605 JLINK_SetSpeed(2000) (0000ms, 0552ms total)
T059C 000:605 JLINK_GetId() >0x108 TIF>Found SWD-DP with ID 0x0BB11477 >0x0D TIF> >0x21 TIF> >0x0D TIF> >0x28 TIF> >0x0D TIF> >0x28 TIF> >0x0D TIF> >0x21 TIF> >0x0D TIF> >0x28 TIF> >0x0D TIF> >0x21 TIF> >0x0D TIF> >0x21 TIF> >0x0D TIF> >0x21 TIF> >0x0D TIF> >0x21 TIF> >0x0D TIF> >0x28 TIF> >0x0D TIF> >0x28 TIF> >0x0D TIF> >0x21 TIF> >0x0D TIF> >0x28 TIF> >0x0D TIF> >0x28 TIF> >0x0D TIF> >0x28 TIF> >0x0D TIF> >0x21 TIF> >0x0D TIF> >0x21 TIF> >0x0D TIF> >0x28 TIF> >0x0D TIF> >0x21 TIF> >0x0D TIF>
 >0x21 TIF>Found Cortex-M0 r0p0, Little endian. -- CPU_WriteMem(4 bytes @ 0xE0002000) -- CPU_ReadMem(4 bytes @ 0xE000EDF0) -- CPU_WriteMem(4 bytes @ 0xE000EDF0) -- CPU_ReadMem(4 bytes @ 0xE0002000)FPUnit: 4 code (BP) slots and 0 literal slots -- CPU_ReadMem(4 bytes @ 0xE000EDFC) -- CPU_WriteMem(4 bytes @ 0xE000EDFC) -- CPU_ReadMem(4 bytes @ 0xE0001000) -- CPU_WriteMem(4 bytes @ 0xE0001000) -- CPU_ReadMem(4 bytes @ 0xE00FF018) >0x0D TIF> >0x21 TIF>  returns 0x0BB11477 (0037ms, 0589ms total)
T059C 000:642 JLINK_GetDLLVersion()  returns 49604 (0000ms, 0589ms total)
T059C 000:642 JLINK_CORE_GetFound()  returns 0x60000FF (0000ms, 0589ms total)
T059C 000:642 JLINK_GetDebugInfo(0x100) -- Value=0xE00FF003  returns 0x00 (0000ms, 0589ms total)
T059C 000:645 JLINK_ReadMem (0xE00FF000, 0x0020 Bytes, ...) -- CPU is running -- CPU_ReadMem(32 bytes @ 0xE00FF000) - Data: 03 F0 F0 FF 03 20 F0 FF 03 30 F0 FF 00 00 00 00 ...  returns 0x00 (0000ms, 0589ms total)
T059C 000:645 JLINK_ReadMem (0xE000EFF0, 0x0010 Bytes, ...) -- CPU is running -- CPU_ReadMem(16 bytes @ 0xE000EFF0) - Data: 0D 00 00 00 E0 00 00 00 05 00 00 00 B1 00 00 00  returns 0x00 (0001ms, 0590ms total)
T059C 000:646 JLINK_ReadMem (0xE000EFD0, 0x0020 Bytes, ...) -- CPU is running -- CPU_ReadMem(32 bytes @ 0xE000EFD0) - Data: 04 00 00 00 00 00 00 00 00 00 00 00 00 00 00 00 ...  returns 0x00 (0001ms, 0591ms total)
T059C 000:647 JLINK_ReadMem (0xE0001FF0, 0x0010 Bytes, ...) -- CPU is running -- CPU_ReadMem(16 bytes @ 0xE0001FF0) - Data: 0D 00 00 00 E0 00 00 00 05 00 00 00 B1 00 00 00  returns 0x00 (0001ms, 0592ms total)
T059C 000:648 JLINK_ReadMem (0xE0001FD0, 0x0020 Bytes, ...) -- CPU is running -- CPU_ReadMem(32 bytes @ 0xE0001FD0) - Data: 04 00 00 00 00 00 00 00 00 00 00 00 00 00 00 00 ...  returns 0x00 (0001ms, 0593ms total)
T059C 000:649 JLINK_ReadMem (0xE0002FF0, 0x0010 Bytes, ...) -- CPU is running -- CPU_ReadMem(16 bytes @ 0xE0002FF0) - Data: 0D 00 00 00 E0 00 00 00 05 00 00 00 B1 00 00 00  returns 0x00 (0001ms, 0594ms total)
T059C 000:650 JLINK_ReadMem (0xE0002FD0, 0x0020 Bytes, ...) -- CPU is running -- CPU_ReadMem(32 bytes @ 0xE0002FD0) - Data: 04 00 00 00 00 00 00 00 00 00 00 00 00 00 00 00 ...  returns 0x00 (0001ms, 0595ms total)
T059C 000:651 JLINK_ReadMemU32(0xE000ED00, 0x0001 Items, ...) -- CPU is running -- CPU_ReadMem(4 bytes @ 0xE000ED00) - Data: 00 C2 0C 41  returns 0x01 (0000ms, 0595ms total)
T059C 000:651 JLINK_SetResetType(JLINKARM_RESET_TYPE_NORMAL)  returns JLINKARM_RESET_TYPE_NORMAL (0000ms, 0595ms total)
T059C 000:651 JLINK_Reset() -- CPU is running -- CPU_WriteMem(4 bytes @ 0xE000EDF0) -- CPU is running -- CPU_WriteMem(4 bytes @ 0xE000EDFC) >0x35 TIF> -- CPU is running -- CPU_WriteMem(4 bytes @ 0xE000ED0C) -- CPU is running -- CPU_ReadMem(4 bytes @ 0xE000EDF0) -- CPU is running -- CPU_ReadMem(4 bytes @ 0xE000EDF0) -- CPU is running -- CPU_WriteMem(4 bytes @ 0xE000EDF0) -- CPU is running -- CPU_WriteMem(4 bytes @ 0xE000EDFC) -- CPU is running -- CPU_ReadMem(4 bytes @ 0xE000EDF0)
 -- CPU_WriteMem(4 bytes @ 0xE0002000) -- CPU_ReadMem(4 bytes @ 0xE000EDFC) -- CPU_ReadMem(4 bytes @ 0xE0001000) -- CPU_WriteMem(4 bytes @ 0xE0001000) (0023ms, 0618ms total)
T059C 000:674 JLINK_Halt()  returns 0x00 (0000ms, 0618ms total)
T059C 000:674 JLINK_IsHalted()  returns TRUE (0000ms, 0618ms total)
T059C 000:674 JLINK_ReadMemU32(0xE000EDF0, 0x0001 Items, ...) -- CPU_ReadMem(4 bytes @ 0xE000EDF0) - Data: 03 00 03 00  returns 0x01 (0001ms, 0619ms total)
T059C 000:675 JLINK_WriteU32(0xE000EDF0, 0xA05F0003) -- CPU_WriteMem(4 bytes @ 0xE000EDF0)  returns 0x00 (0000ms, 0619ms total)
T059C 000:675 JLINK_WriteU32(0xE000EDFC, 0x01000000) -- CPU_WriteMem(4 bytes @ 0xE000EDFC)  returns 0x00 (0001ms, 0620ms total)
T059C 000:684 JLINK_GetHWStatus(...)  returns 0x00 (0000ms, 0620ms total)
T059C 000:688 JLINK_GetNumBPUnits(Type = 0xFFFFFF00)  returns 0x04 (0000ms, 0620ms total)
T059C 000:688 JLINK_GetNumBPUnits(Type = 0xF0)  returns 0x2000 (0000ms, 0620ms total)
T059C 000:688 JLINK_GetNumWPUnits()  returns 0x02 (0000ms, 0620ms total)
T059C 000:694 JLINK_GetSpeed()  returns 0x7D0 (0000ms, 0620ms total)
T059C 000:698 JLINK_ReadMemU32(0xE000E004, 0x0001 Items, ...) -- CPU_ReadMem(4 bytes @ 0xE000E004) - Data: 00 00 00 00  returns 0x01 (0001ms, 0621ms total)
T059C 000:699 JLINK_Halt()  returns 0x00 (0000ms, 0621ms total)
T059C 000:699 JLINK_IsHalted()  returns TRUE (0000ms, 0621ms total)
T059C 000:701 JLINK_WriteMem(0x20000000, 0x0170 Bytes, ...) - Data: 00 BE 0A E0 0D 78 2D 06 68 40 08 24 40 00 00 D3 ... -- CPU_WriteMem(368 bytes @ 0x20000000)  returns 0x170 (0003ms, 0624ms total)
T059C 000:704 JLINK_WriteReg(R0, 0x08000000)  returns 0x00 (0000ms, 0624ms total)
T059C 000:704 JLINK_WriteReg(R1, 0x00B71B00)  returns 0x00 (0000ms, 0624ms total)
T059C 000:704 JLINK_WriteReg(R2, 0x00000001)  returns 0x00 (0000ms, 0624ms total)
T059C 000:704 JLINK_WriteReg(R3, 0x00000000)  returns 0x00 (0000ms, 0624ms total)
T059C 000:704 JLINK_WriteReg(R4, 0x00000000)  returns 0x00 (0000ms, 0624ms total)
T059C 000:704 JLINK_WriteReg(R5, 0x00000000)  returns 0x00 (0000ms, 0624ms total)
T059C 000:704 JLINK_WriteReg(R6, 0x00000000)  returns 0x00 (0000ms, 0624ms total)
T059C 000:704 JLINK_WriteReg(R7, 0x00000000)  returns 0x00 (0000ms, 0624ms total)
T059C 000:704 JLINK_WriteReg(R8, 0x00000000)  returns 0x00 (0000ms, 0624ms total)
T059C 000:704 JLINK_WriteReg(R9, 0x2000016C)  returns 0x00 (0000ms, 0624ms total)
T059C 000:704 JLINK_WriteReg(R10, 0x00000000)  returns 0x00 (0000ms, 0624ms total)
T059C 000:704 JLINK_WriteReg(R11, 0x00000000)  returns 0x00 (0000ms, 0624ms total)
T059C 000:704 JLINK_WriteReg(R12, 0x00000000)  returns 0x00 (0000ms, 0624ms total)
T059C 000:704 JLINK_WriteReg(R13 (SP), 0x20001000)  returns 0x00 (0000ms, 0624ms total)
T059C 000:704 JLINK_WriteReg(R14, 0x20000001)  returns 0x00 (0000ms, 0624ms total)
T059C 000:704 JLINK_WriteReg(R15 (PC), 0x20000038)  returns 0x00 (0000ms, 0624ms total)
T059C 000:704 JLINK_WriteReg(XPSR, 0x01000000)  returns 0x00 (0000ms, 0624ms total)
T059C 000:704 JLINK_WriteReg(MSP, 0x20001000)  returns 0x00 (0000ms, 0624ms total)
T059C 000:704 JLINK_WriteReg(PSP, 0x20001000)  returns 0x00 (0000ms, 0624ms total)
T059C 000:704 JLINK_WriteReg(CFBP, 0x00000000)  returns 0x00 (0000ms, 0624ms total)
T059C 000:704 JLINK_SetBPEx(Addr = 0x20000000, Type = 0xFFFFFFF2) -- CPU_ReadMem(4 bytes @ 0x20000000) -- CPU_WriteMem(4 bytes @ 0x20000000) -- CPU_ReadMem(4 bytes @ 0x20000000) -- CPU_WriteMem(4 bytes @ 0x20000000) -- CPU_ReadMem(2 bytes @ 0x20000000)  returns 0x00000001 (0003ms, 0627ms total)
T059C 000:707 JLINK_Go() -- CPU_WriteMem(2 bytes @ 0x20000000) -- CPU_WriteMem(4 bytes @ 0xE0002008) -- CPU_WriteMem(4 bytes @ 0xE000200C) -- CPU_WriteMem(4 bytes @ 0xE0002010) -- CPU_WriteMem(4 bytes @ 0xE0002014) -- CPU_WriteMem(4 bytes @ 0xE0001004) (0007ms, 0634ms total)
T059C 000:714 JLINK_IsHalted() -- CPU_ReadMem(2 bytes @ 0x20000000)  returns TRUE (0005ms, 0639ms total)
T059C 000:719 JLINK_ReadReg(R15 (PC))  returns 0x20000000 (0000ms, 0634ms total)
T059C 000:719 JLINK_ClrBPEx(BPHandle = 0x00000001)  returns 0x00 (0000ms, 0634ms total)
T059C 000:719 JLINK_ReadReg(R0)  returns 0x00000000 (0000ms, 0634ms total)
T059C 000:719 JLINK_WriteReg(R0, 0x08000000)  returns 0x00 (0000ms, 0634ms total)
T059C 000:719 JLINK_WriteReg(R1, 0x00B71B00)  returns 0x00 (0000ms, 0634ms total)
T059C 000:719 JLINK_WriteReg(R2, 0x00000001)  returns 0x00 (0000ms, 0634ms total)
T059C 000:719 JLINK_WriteReg(R3, 0x00000000)  returns 0x00 (0000ms, 0634ms total)
T059C 000:719 JLINK_WriteReg(R4, 0x00000000)  returns 0x00 (0000ms, 0634ms total)
T059C 000:719 JLINK_WriteReg(R5, 0x00000000)  returns 0x00 (0000ms, 0634ms total)
T059C 000:719 JLINK_WriteReg(R6, 0x00000000)  returns 0x00 (0000ms, 0634ms total)
T059C 000:719 JLINK_WriteReg(R7, 0x00000000)  returns 0x00 (0000ms, 0634ms total)
T059C 000:719 JLINK_WriteReg(R8, 0x00000000)  returns 0x00 (0000ms, 0634ms total)
T059C 000:719 JLINK_WriteReg(R9, 0x2000016C)  returns 0x00 (0000ms, 0634ms total)
T059C 000:719 JLINK_WriteReg(R10, 0x00000000)  returns 0x00 (0000ms, 0634ms total)
T059C 000:719 JLINK_WriteReg(R11, 0x00000000)  returns 0x00 (0000ms, 0634ms total)
T059C 000:719 JLINK_WriteReg(R12, 0x00000000)  returns 0x00 (0000ms, 0634ms total)
T059C 000:719 JLINK_WriteReg(R13 (SP), 0x20001000)  returns 0x00 (0000ms, 0634ms total)
T059C 000:719 JLINK_WriteReg(R14, 0x20000001)  returns 0x00 (0000ms, 0634ms total)
T059C 000:719 JLINK_WriteReg(R15 (PC), 0x20000074)  returns 0x00 (0000ms, 0634ms total)
T059C 000:719 JLINK_WriteReg(XPSR, 0x01000000)  returns 0x00 (0000ms, 0634ms total)
T059C 000:719 JLINK_WriteReg(MSP, 0x20001000)  returns 0x00 (0000ms, 0634ms total)
T059C 000:719 JLINK_WriteReg(PSP, 0x20001000)  returns 0x00 (0000ms, 0634ms total)
T059C 000:719 JLINK_WriteReg(CFBP, 0x00000000)  returns 0x00 (0000ms, 0634ms total)
T059C 000:719 JLINK_SetBPEx(Addr = 0x20000000, Type = 0xFFFFFFF2)  returns 0x00000002 (0000ms, 0634ms total)
T059C 000:719 JLINK_Go() (0002ms, 0636ms total)
T059C 000:721 JLINK_IsHalted()  returns FALSE (0001ms, 0637ms total)
T059C 000:755 JLINK_IsHalted() -- CPU_ReadMem(2 bytes @ 0x20000000)  returns TRUE (0004ms, 0640ms total)
T059C 000:759 JLINK_ReadReg(R15 (PC))  returns 0x20000000 (0000ms, 0636ms total)
T059C 000:759 JLINK_ClrBPEx(BPHandle = 0x00000002)  returns 0x00 (0000ms, 0636ms total)
T059C 000:759 JLINK_ReadReg(R0)  returns 0x00000000 (0000ms, 0636ms total)
T059C 000:810 JLINK_WriteReg(R0, 0x00000001)  returns 0x00 (0000ms, 0636ms total)
T059C 000:810 JLINK_WriteReg(R1, 0x00B71B00)  returns 0x00 (0000ms, 0636ms total)
T059C 000:810 JLINK_WriteReg(R2, 0x00000001)  returns 0x00 (0000ms, 0636ms total)
T059C 000:810 JLINK_WriteReg(R3, 0x00000000)  returns 0x00 (0000ms, 0636ms total)
T059C 000:810 JLINK_WriteReg(R4, 0x00000000)  returns 0x00 (0000ms, 0636ms total)
T059C 000:810 JLINK_WriteReg(R5, 0x00000000)  returns 0x00 (0000ms, 0636ms total)
T059C 000:810 JLINK_WriteReg(R6, 0x00000000)  returns 0x00 (0000ms, 0636ms total)
T059C 000:810 JLINK_WriteReg(R7, 0x00000000)  returns 0x00 (0000ms, 0636ms total)
T059C 000:810 JLINK_WriteReg(R8, 0x00000000)  returns 0x00 (0000ms, 0636ms total)
T059C 000:810 JLINK_WriteReg(R9, 0x2000016C)  returns 0x00 (0000ms, 0636ms total)
T059C 000:810 JLINK_WriteReg(R10, 0x00000000)  returns 0x00 (0000ms, 0636ms total)
T059C 000:810 JLINK_WriteReg(R11, 0x00000000)  returns 0x00 (0000ms, 0636ms total)
T059C 000:810 JLINK_WriteReg(R12, 0x00000000)  returns 0x00 (0000ms, 0636ms total)
T059C 000:810 JLINK_WriteReg(R13 (SP), 0x20001000)  returns 0x00 (0000ms, 0636ms total)
T059C 000:810 JLINK_WriteReg(R14, 0x20000001)  returns 0x00 (0000ms, 0636ms total)
T059C 000:810 JLINK_WriteReg(R15 (PC), 0x20000066)  returns 0x00 (0000ms, 0636ms total)
T059C 000:810 JLINK_WriteReg(XPSR, 0x01000000)  returns 0x00 (0000ms, 0636ms total)
T059C 000:810 JLINK_WriteReg(MSP, 0x20001000)  returns 0x00 (0000ms, 0636ms total)
T059C 000:810 JLINK_WriteReg(PSP, 0x20001000)  returns 0x00 (0000ms, 0636ms total)
T059C 000:810 JLINK_WriteReg(CFBP, 0x00000000)  returns 0x00 (0000ms, 0636ms total)
T059C 000:810 JLINK_SetBPEx(Addr = 0x20000000, Type = 0xFFFFFFF2)  returns 0x00000003 (0000ms, 0636ms total)
T059C 000:810 JLINK_Go() (0003ms, 0639ms total)
T059C 000:813 JLINK_IsHalted() -- CPU_ReadMem(2 bytes @ 0x20000000)  returns TRUE (0004ms, 0643ms total)
T059C 000:817 JLINK_ReadReg(R15 (PC))  returns 0x20000000 (0000ms, 0639ms total)
T059C 000:817 JLINK_ClrBPEx(BPHandle = 0x00000003)  returns 0x00 (0000ms, 0639ms total)
T059C 000:817 JLINK_ReadReg(R0)  returns 0x00000000 (0000ms, 0639ms total)
T059C 000:822 JLINK_WriteMem(0x20000000, 0x0170 Bytes, ...) - Data: 00 BE 0A E0 0D 78 2D 06 68 40 08 24 40 00 00 D3 ... -- CPU_WriteMem(368 bytes @ 0x20000000)  returns 0x170 (0003ms, 0642ms total)
T059C 000:825 JLINK_WriteReg(R0, 0x08000000)  returns 0x00 (0000ms, 0642ms total)
T059C 000:825 JLINK_WriteReg(R1, 0x00B71B00)  returns 0x00 (0000ms, 0642ms total)
T059C 000:825 JLINK_WriteReg(R2, 0x00000002)  returns 0x00 (0000ms, 0642ms total)
T059C 000:825 JLINK_WriteReg(R3, 0x00000000)  returns 0x00 (0000ms, 0642ms total)
T059C 000:825 JLINK_WriteReg(R4, 0x00000000)  returns 0x00 (0000ms, 0642ms total)
T059C 000:825 JLINK_WriteReg(R5, 0x00000000)  returns 0x00 (0000ms, 0642ms total)
T059C 000:825 JLINK_WriteReg(R6, 0x00000000)  returns 0x00 (0000ms, 0642ms total)
T059C 000:825 JLINK_WriteReg(R7, 0x00000000)  returns 0x00 (0001ms, 0643ms total)
T059C 000:826 JLINK_WriteReg(R8, 0x00000000)  returns 0x00 (0000ms, 0643ms total)
T059C 000:826 JLINK_WriteReg(R9, 0x2000016C)  returns 0x00 (0000ms, 0643ms total)
T059C 000:826 JLINK_WriteReg(R10, 0x00000000)  returns 0x00 (0000ms, 0643ms total)
T059C 000:826 JLINK_WriteReg(R11, 0x00000000)  returns 0x00 (0000ms, 0643ms total)
T059C 000:826 JLINK_WriteReg(R12, 0x00000000)  returns 0x00 (0000ms, 0643ms total)
T059C 000:826 JLINK_WriteReg(R13 (SP), 0x20001000)  returns 0x00 (0000ms, 0643ms total)
T059C 000:826 JLINK_WriteReg(R14, 0x20000001)  returns 0x00 (0000ms, 0643ms total)
T059C 000:826 JLINK_WriteReg(R15 (PC), 0x20000038)  returns 0x00 (0000ms, 0643ms total)
T059C 000:826 JLINK_WriteReg(XPSR, 0x01000000)  returns 0x00 (0000ms, 0643ms total)
T059C 000:826 JLINK_WriteReg(MSP, 0x20001000)  returns 0x00 (0000ms, 0643ms total)
T059C 000:826 JLINK_WriteReg(PSP, 0x20001000)  returns 0x00 (0000ms, 0643ms total)
T059C 000:826 JLINK_WriteReg(CFBP, 0x00000000)  returns 0x00 (0000ms, 0643ms total)
T059C 000:826 JLINK_SetBPEx(Addr = 0x20000000, Type = 0xFFFFFFF2) -- CPU_ReadMem(4 bytes @ 0x20000000) -- CPU_WriteMem(4 bytes @ 0x20000000) -- CPU_ReadMem(4 bytes @ 0x20000000) -- CPU_WriteMem(4 bytes @ 0x20000000) -- CPU_ReadMem(2 bytes @ 0x20000000)  returns 0x00000004 (0003ms, 0646ms total)
T059C 000:829 JLINK_Go() -- CPU_WriteMem(2 bytes @ 0x20000000) (0003ms, 0649ms total)
T059C 000:833 JLINK_IsHalted() -- CPU_ReadMem(2 bytes @ 0x20000000)  returns TRUE (0004ms, 0654ms total)
T059C 000:837 JLINK_ReadReg(R15 (PC))  returns 0x20000000 (0000ms, 0650ms total)
T059C 000:837 JLINK_ClrBPEx(BPHandle = 0x00000004)  returns 0x00 (0000ms, 0650ms total)
T059C 000:837 JLINK_ReadReg(R0)  returns 0x00000000 (0000ms, 0650ms total)
T059C 000:837 JLINK_WriteMem(0x20000170, 0x0290 Bytes, ...) - Data: 90 09 00 20 CD 00 00 08 59 0B 00 08 55 0B 00 08 ... -- CPU_WriteMem(656 bytes @ 0x20000170)  returns 0x290 (0007ms, 0657ms total)
T059C 000:844 JLINK_WriteMem(0x20000400, 0x0170 Bytes, ...) - Data: C0 1A 91 41 36 05 00 1C 71 41 CE 07 40 08 30 43 ... -- CPU_WriteMem(368 bytes @ 0x20000400)  returns 0x170 (0003ms, 0660ms total)
T059C 000:847 JLINK_WriteReg(R0, 0x08000000)  returns 0x00 (0000ms, 0660ms total)
T059C 000:847 JLINK_WriteReg(R1, 0x00000400)  returns 0x00 (0000ms, 0660ms total)
T059C 000:847 JLINK_WriteReg(R2, 0x20000170)  returns 0x00 (0000ms, 0660ms total)
T059C 000:847 JLINK_WriteReg(R3, 0x00000000)  returns 0x00 (0000ms, 0660ms total)
T059C 000:847 JLINK_WriteReg(R4, 0x00000000)  returns 0x00 (0000ms, 0660ms total)
T059C 000:847 JLINK_WriteReg(R5, 0x00000000)  returns 0x00 (0000ms, 0660ms total)
T059C 000:847 JLINK_WriteReg(R6, 0x00000000)  returns 0x00 (0000ms, 0660ms total)
T059C 000:847 JLINK_WriteReg(R7, 0x00000000)  returns 0x00 (0000ms, 0660ms total)
T059C 000:847 JLINK_WriteReg(R8, 0x00000000)  returns 0x00 (0000ms, 0660ms total)
T059C 000:847 JLINK_WriteReg(R9, 0x2000016C)  returns 0x00 (0000ms, 0660ms total)
T059C 000:847 JLINK_WriteReg(R10, 0x00000000)  returns 0x00 (0000ms, 0660ms total)
T059C 000:847 JLINK_WriteReg(R11, 0x00000000)  returns 0x00 (0000ms, 0660ms total)
T059C 000:847 JLINK_WriteReg(R12, 0x00000000)  returns 0x00 (0000ms, 0660ms total)
T059C 000:847 JLINK_WriteReg(R13 (SP), 0x20001000)  returns 0x00 (0000ms, 0660ms total)
T059C 000:847 JLINK_WriteReg(R14, 0x20000001)  returns 0x00 (0000ms, 0660ms total)
T059C 000:847 JLINK_WriteReg(R15 (PC), 0x200000FA)  returns 0x00 (0000ms, 0660ms total)
T059C 000:847 JLINK_WriteReg(XPSR, 0x01000000)  returns 0x00 (0000ms, 0660ms total)
T059C 000:847 JLINK_WriteReg(MSP, 0x20001000)  returns 0x00 (0000ms, 0660ms total)
T059C 000:847 JLINK_WriteReg(PSP, 0x20001000)  returns 0x00 (0000ms, 0660ms total)
T059C 000:847 JLINK_WriteReg(CFBP, 0x00000000)  returns 0x00 (0000ms, 0660ms total)
T059C 000:847 JLINK_SetBPEx(Addr = 0x20000000, Type = 0xFFFFFFF2)  returns 0x00000005 (0000ms, 0660ms total)
T059C 000:847 JLINK_Go() (0002ms, 0662ms total)
T059C 000:849 JLINK_IsHalted()  returns FALSE (0001ms, 0663ms total)
T059C 000:860 JLINK_IsHalted()  returns FALSE (0000ms, 0662ms total)
T059C 000:865 JLINK_IsHalted()  returns FALSE (0000ms, 0662ms total)
T059C 000:868 JLINK_IsHalted() -- CPU_ReadMem(2 bytes @ 0x20000000)  returns TRUE (0004ms, 0666ms total)
T059C 000:872 JLINK_ReadReg(R15 (PC))  returns 0x20000000 (0000ms, 0662ms total)
T059C 000:872 JLINK_ClrBPEx(BPHandle = 0x00000005)  returns 0x00 (0000ms, 0662ms total)
T059C 000:872 JLINK_ReadReg(R0)  returns 0x00000000 (0000ms, 0662ms total)
T059C 000:873 JLINK_WriteMem(0x20000170, 0x0290 Bytes, ...) - Data: 51 18 88 40 10 BD 00 00 FF 03 00 00 CD FB FF FF ... -- CPU_WriteMem(656 bytes @ 0x20000170)  returns 0x290 (0005ms, 0667ms total)
T059C 000:878 JLINK_WriteMem(0x20000400, 0x0170 Bytes, ...) - Data: 1B 05 19 43 0A 4B 10 B5 52 0D 9A 42 02 DA 00 20 ... -- CPU_WriteMem(368 bytes @ 0x20000400)  returns 0x170 (0004ms, 0671ms total)
T059C 000:882 JLINK_WriteReg(R0, 0x08000400)  returns 0x00 (0000ms, 0671ms total)
T059C 000:882 JLINK_WriteReg(R1, 0x00000400)  returns 0x00 (0000ms, 0671ms total)
T059C 000:882 JLINK_WriteReg(R2, 0x20000170)  returns 0x00 (0000ms, 0671ms total)
T059C 000:882 JLINK_WriteReg(R3, 0x00000000)  returns 0x00 (0000ms, 0671ms total)
T059C 000:882 JLINK_WriteReg(R4, 0x00000000)  returns 0x00 (0000ms, 0671ms total)
T059C 000:882 JLINK_WriteReg(R5, 0x00000000)  returns 0x00 (0000ms, 0671ms total)
T059C 000:882 JLINK_WriteReg(R6, 0x00000000)  returns 0x00 (0000ms, 0671ms total)
T059C 000:882 JLINK_WriteReg(R7, 0x00000000)  returns 0x00 (0000ms, 0671ms total)
T059C 000:882 JLINK_WriteReg(R8, 0x00000000)  returns 0x00 (0000ms, 0671ms total)
T059C 000:882 JLINK_WriteReg(R9, 0x2000016C)  returns 0x00 (0000ms, 0671ms total)
T059C 000:882 JLINK_WriteReg(R10, 0x00000000)  returns 0x00 (0000ms, 0671ms total)
T059C 000:882 JLINK_WriteReg(R11, 0x00000000)  returns 0x00 (0000ms, 0671ms total)
T059C 000:882 JLINK_WriteReg(R12, 0x00000000)  returns 0x00 (0000ms, 0671ms total)
T059C 000:882 JLINK_WriteReg(R13 (SP), 0x20001000)  returns 0x00 (0000ms, 0671ms total)
T059C 000:882 JLINK_WriteReg(R14, 0x20000001)  returns 0x00 (0000ms, 0671ms total)
T059C 000:882 JLINK_WriteReg(R15 (PC), 0x200000FA)  returns 0x00 (0000ms, 0671ms total)
T059C 000:882 JLINK_WriteReg(XPSR, 0x01000000)  returns 0x00 (0000ms, 0671ms total)
T059C 000:882 JLINK_WriteReg(MSP, 0x20001000)  returns 0x00 (0000ms, 0671ms total)
T059C 000:882 JLINK_WriteReg(PSP, 0x20001000)  returns 0x00 (0000ms, 0671ms total)
T059C 000:882 JLINK_WriteReg(CFBP, 0x00000000)  returns 0x00 (0000ms, 0671ms total)
T059C 000:882 JLINK_SetBPEx(Addr = 0x20000000, Type = 0xFFFFFFF2)  returns 0x00000006 (0000ms, 0671ms total)
T059C 000:882 JLINK_Go() (0002ms, 0673ms total)
T059C 000:884 JLINK_IsHalted()  returns FALSE (0001ms, 0674ms total)
T059C 000:888 JLINK_IsHalted()  returns FALSE (0001ms, 0674ms total)
T059C 000:891 JLINK_IsHalted()  returns FALSE (0000ms, 0673ms total)
T059C 000:895 JLINK_IsHalted()  returns FALSE (0001ms, 0674ms total)
T059C 000:898 JLINK_IsHalted()  returns FALSE (0000ms, 0673ms total)
T059C 000:900 JLINK_IsHalted()  returns FALSE (0000ms, 0673ms total)
T059C 000:903 JLINK_IsHalted() -- CPU_ReadMem(2 bytes @ 0x20000000)  returns TRUE (0005ms, 0678ms total)
T059C 000:908 JLINK_ReadReg(R15 (PC))  returns 0x20000000 (0000ms, 0673ms total)
T059C 000:908 JLINK_ClrBPEx(BPHandle = 0x00000006)  returns 0x00 (0000ms, 0673ms total)
T059C 000:908 JLINK_ReadReg(R0)  returns 0x00000000 (0000ms, 0673ms total)
T059C 000:908 JLINK_WriteMem(0x20000170, 0x0290 Bytes, ...) - Data: 89 02 31 48 02 F0 F4 FF 01 21 C9 02 2E 48 02 F0 ... -- CPU_WriteMem(656 bytes @ 0x20000170)  returns 0x290 (0005ms, 0678ms total)
T059C 000:914 JLINK_WriteMem(0x20000400, 0x0170 Bytes, ...) - Data: 28 46 FF F7 73 FF 05 48 00 68 01 90 03 48 40 68 ... -- CPU_WriteMem(368 bytes @ 0x20000400)  returns 0x170 (0003ms, 0682ms total)
T059C 000:917 JLINK_WriteReg(R0, 0x08000800)  returns 0x00 (0000ms, 0682ms total)
T059C 000:917 JLINK_WriteReg(R1, 0x00000400)  returns 0x00 (0000ms, 0682ms total)
T059C 000:917 JLINK_WriteReg(R2, 0x20000170)  returns 0x00 (0000ms, 0682ms total)
T059C 000:917 JLINK_WriteReg(R3, 0x00000000)  returns 0x00 (0000ms, 0682ms total)
T059C 000:917 JLINK_WriteReg(R4, 0x00000000)  returns 0x00 (0000ms, 0682ms total)
T059C 000:917 JLINK_WriteReg(R5, 0x00000000)  returns 0x00 (0000ms, 0682ms total)
T059C 000:917 JLINK_WriteReg(R6, 0x00000000)  returns 0x00 (0000ms, 0682ms total)
T059C 000:917 JLINK_WriteReg(R7, 0x00000000)  returns 0x00 (0000ms, 0682ms total)
T059C 000:917 JLINK_WriteReg(R8, 0x00000000)  returns 0x00 (0000ms, 0682ms total)
T059C 000:917 JLINK_WriteReg(R9, 0x2000016C)  returns 0x00 (0000ms, 0682ms total)
T059C 000:917 JLINK_WriteReg(R10, 0x00000000)  returns 0x00 (0000ms, 0682ms total)
T059C 000:917 JLINK_WriteReg(R11, 0x00000000)  returns 0x00 (0000ms, 0682ms total)
T059C 000:917 JLINK_WriteReg(R12, 0x00000000)  returns 0x00 (0000ms, 0682ms total)
T059C 000:917 JLINK_WriteReg(R13 (SP), 0x20001000)  returns 0x00 (0000ms, 0682ms total)
T059C 000:917 JLINK_WriteReg(R14, 0x20000001)  returns 0x00 (0000ms, 0682ms total)
T059C 000:917 JLINK_WriteReg(R15 (PC), 0x200000FA)  returns 0x00 (0000ms, 0682ms total)
T059C 000:917 JLINK_WriteReg(XPSR, 0x01000000)  returns 0x00 (0000ms, 0682ms total)
T059C 000:917 JLINK_WriteReg(MSP, 0x20001000)  returns 0x00 (0000ms, 0682ms total)
T059C 000:917 JLINK_WriteReg(PSP, 0x20001000)  returns 0x00 (0000ms, 0682ms total)
T059C 000:917 JLINK_WriteReg(CFBP, 0x00000000)  returns 0x00 (0000ms, 0682ms total)
T059C 000:917 JLINK_SetBPEx(Addr = 0x20000000, Type = 0xFFFFFFF2)  returns 0x00000007 (0000ms, 0682ms total)
T059C 000:917 JLINK_Go() (0003ms, 0685ms total)
T059C 000:920 JLINK_IsHalted()  returns FALSE (0001ms, 0686ms total)
T059C 000:926 JLINK_IsHalted()  returns FALSE (0000ms, 0685ms total)
T059C 000:928 JLINK_IsHalted()  returns FALSE (0000ms, 0685ms total)
T059C 000:931 JLINK_IsHalted()  returns FALSE (0000ms, 0685ms total)
T059C 000:934 JLINK_IsHalted()  returns FALSE (0000ms, 0685ms total)
T059C 000:936 JLINK_IsHalted()  returns FALSE (0000ms, 0685ms total)
T059C 000:939 JLINK_IsHalted() -- CPU_ReadMem(2 bytes @ 0x20000000)  returns TRUE (0005ms, 0690ms total)
T059C 000:944 JLINK_ReadReg(R15 (PC))  returns 0x20000000 (0000ms, 0685ms total)
T059C 000:944 JLINK_ClrBPEx(BPHandle = 0x00000007)  returns 0x00 (0000ms, 0685ms total)
T059C 000:944 JLINK_ReadReg(R0)  returns 0x00000000 (0000ms, 0685ms total)
T059C 000:944 JLINK_WriteMem(0x20000170, 0x0290 Bytes, ...) - Data: 09 20 C0 06 02 F0 F6 FD 01 21 C9 07 E1 40 68 68 ... -- CPU_WriteMem(656 bytes @ 0x20000170)  returns 0x290 (0006ms, 0691ms total)
T059C 000:950 JLINK_WriteMem(0x20000400, 0x0170 Bytes, ...) - Data: 08 60 00 BF 0E 48 00 68 01 21 49 06 08 40 00 28 ... -- CPU_WriteMem(368 bytes @ 0x20000400)  returns 0x170 (0003ms, 0694ms total)
T059C 000:953 JLINK_WriteReg(R0, 0x08000C00)  returns 0x00 (0000ms, 0694ms total)
T059C 000:953 JLINK_WriteReg(R1, 0x00000400)  returns 0x00 (0000ms, 0694ms total)
T059C 000:953 JLINK_WriteReg(R2, 0x20000170)  returns 0x00 (0000ms, 0694ms total)
T059C 000:953 JLINK_WriteReg(R3, 0x00000000)  returns 0x00 (0000ms, 0694ms total)
T059C 000:953 JLINK_WriteReg(R4, 0x00000000)  returns 0x00 (0000ms, 0694ms total)
T059C 000:953 JLINK_WriteReg(R5, 0x00000000)  returns 0x00 (0000ms, 0694ms total)
T059C 000:953 JLINK_WriteReg(R6, 0x00000000)  returns 0x00 (0000ms, 0694ms total)
T059C 000:953 JLINK_WriteReg(R7, 0x00000000)  returns 0x00 (0000ms, 0694ms total)
T059C 000:953 JLINK_WriteReg(R8, 0x00000000)  returns 0x00 (0000ms, 0694ms total)
T059C 000:953 JLINK_WriteReg(R9, 0x2000016C)  returns 0x00 (0000ms, 0694ms total)
T059C 000:953 JLINK_WriteReg(R10, 0x00000000)  returns 0x00 (0000ms, 0694ms total)
T059C 000:953 JLINK_WriteReg(R11, 0x00000000)  returns 0x00 (0000ms, 0694ms total)
T059C 000:953 JLINK_WriteReg(R12, 0x00000000)  returns 0x00 (0000ms, 0694ms total)
T059C 000:953 JLINK_WriteReg(R13 (SP), 0x20001000)  returns 0x00 (0000ms, 0694ms total)
T059C 000:953 JLINK_WriteReg(R14, 0x20000001)  returns 0x00 (0000ms, 0694ms total)
T059C 000:953 JLINK_WriteReg(R15 (PC), 0x200000FA)  returns 0x00 (0000ms, 0694ms total)
T059C 000:953 JLINK_WriteReg(XPSR, 0x01000000)  returns 0x00 (0000ms, 0694ms total)
T059C 000:953 JLINK_WriteReg(MSP, 0x20001000)  returns 0x00 (0000ms, 0694ms total)
T059C 000:953 JLINK_WriteReg(PSP, 0x20001000)  returns 0x00 (0000ms, 0694ms total)
T059C 000:953 JLINK_WriteReg(CFBP, 0x00000000)  returns 0x00 (0000ms, 0694ms total)
T059C 000:953 JLINK_SetBPEx(Addr = 0x20000000, Type = 0xFFFFFFF2)  returns 0x00000008 (0000ms, 0694ms total)
T059C 000:953 JLINK_Go() (0003ms, 0697ms total)
T059C 000:956 JLINK_IsHalted()  returns FALSE (0001ms, 0698ms total)
T059C 000:964 JLINK_IsHalted()  returns FALSE (0000ms, 0697ms total)
T059C 000:966 JLINK_IsHalted()  returns FALSE (0000ms, 0697ms total)
T059C 000:968 JLINK_IsHalted()  returns FALSE (0000ms, 0697ms total)
T059C 000:970 JLINK_IsHalted()  returns FALSE (0000ms, 0697ms total)
T059C 000:972 JLINK_IsHalted() -- CPU_ReadMem(2 bytes @ 0x20000000)  returns TRUE (0005ms, 0702ms total)
T059C 000:977 JLINK_ReadReg(R15 (PC))  returns 0x20000000 (0000ms, 0697ms total)
T059C 000:977 JLINK_ClrBPEx(BPHandle = 0x00000008)  returns 0x00 (0000ms, 0697ms total)
T059C 000:977 JLINK_ReadReg(R0)  returns 0x00000000 (0000ms, 0697ms total)
T059C 000:977 JLINK_WriteMem(0x20000170, 0x0290 Bytes, ...) - Data: 9D F8 20 46 FF F7 D8 F9 30 4A D1 60 90 60 2E 48 ... -- CPU_WriteMem(656 bytes @ 0x20000170)  returns 0x290 (0006ms, 0703ms total)
T059C 000:983 JLINK_WriteMem(0x20000400, 0x0170 Bytes, ...) - Data: 00 20 18 49 08 60 01 25 05 E0 00 20 15 49 08 60 ... -- CPU_WriteMem(368 bytes @ 0x20000400)  returns 0x170 (0003ms, 0706ms total)
T059C 000:986 JLINK_WriteReg(R0, 0x08001000)  returns 0x00 (0000ms, 0706ms total)
T059C 000:986 JLINK_WriteReg(R1, 0x00000400)  returns 0x00 (0000ms, 0706ms total)
T059C 000:986 JLINK_WriteReg(R2, 0x20000170)  returns 0x00 (0000ms, 0706ms total)
T059C 000:986 JLINK_WriteReg(R3, 0x00000000)  returns 0x00 (0000ms, 0706ms total)
T059C 000:986 JLINK_WriteReg(R4, 0x00000000)  returns 0x00 (0000ms, 0706ms total)
T059C 000:986 JLINK_WriteReg(R5, 0x00000000)  returns 0x00 (0000ms, 0706ms total)
T059C 000:986 JLINK_WriteReg(R6, 0x00000000)  returns 0x00 (0000ms, 0706ms total)
T059C 000:986 JLINK_WriteReg(R7, 0x00000000)  returns 0x00 (0000ms, 0706ms total)
T059C 000:986 JLINK_WriteReg(R8, 0x00000000)  returns 0x00 (0000ms, 0706ms total)
T059C 000:986 JLINK_WriteReg(R9, 0x2000016C)  returns 0x00 (0000ms, 0706ms total)
T059C 000:986 JLINK_WriteReg(R10, 0x00000000)  returns 0x00 (0000ms, 0706ms total)
T059C 000:986 JLINK_WriteReg(R11, 0x00000000)  returns 0x00 (0000ms, 0706ms total)
T059C 000:986 JLINK_WriteReg(R12, 0x00000000)  returns 0x00 (0000ms, 0706ms total)
T059C 000:986 JLINK_WriteReg(R13 (SP), 0x20001000)  returns 0x00 (0000ms, 0706ms total)
T059C 000:986 JLINK_WriteReg(R14, 0x20000001)  returns 0x00 (0000ms, 0706ms total)
T059C 000:986 JLINK_WriteReg(R15 (PC), 0x200000FA)  returns 0x00 (0000ms, 0706ms total)
T059C 000:986 JLINK_WriteReg(XPSR, 0x01000000)  returns 0x00 (0000ms, 0706ms total)
T059C 000:986 JLINK_WriteReg(MSP, 0x20001000)  returns 0x00 (0000ms, 0706ms total)
T059C 000:986 JLINK_WriteReg(PSP, 0x20001000)  returns 0x00 (0000ms, 0706ms total)
T059C 000:986 JLINK_WriteReg(CFBP, 0x00000000)  returns 0x00 (0000ms, 0706ms total)
T059C 000:986 JLINK_SetBPEx(Addr = 0x20000000, Type = 0xFFFFFFF2)  returns 0x00000009 (0000ms, 0706ms total)
T059C 000:986 JLINK_Go() (0002ms, 0708ms total)
T059C 000:988 JLINK_IsHalted()  returns FALSE (0001ms, 0709ms total)
T059C 000:991 JLINK_IsHalted()  returns FALSE (0001ms, 0709ms total)
T059C 000:994 JLINK_IsHalted()  returns FALSE (0001ms, 0709ms total)
T059C 000:996 JLINK_IsHalted()  returns FALSE (0000ms, 0708ms total)
T059C 000:998 JLINK_IsHalted()  returns FALSE (0000ms, 0708ms total)
T059C 001:000 JLINK_IsHalted()  returns FALSE (0001ms, 0709ms total)
T059C 001:003 JLINK_IsHalted()  returns FALSE (0000ms, 0708ms total)
T059C 001:006 JLINK_IsHalted() -- CPU_ReadMem(2 bytes @ 0x20000000)  returns TRUE (0004ms, 0712ms total)
T059C 001:010 JLINK_ReadReg(R15 (PC))  returns 0x20000000 (0000ms, 0708ms total)
T059C 001:010 JLINK_ClrBPEx(BPHandle = 0x00000009)  returns 0x00 (0000ms, 0708ms total)
T059C 001:010 JLINK_ReadReg(R0)  returns 0x00000000 (0000ms, 0708ms total)
T059C 001:011 JLINK_WriteMem(0x20000170, 0x0290 Bytes, ...) - Data: 04 4B 18 58 90 42 F2 D1 C8 00 02 4B C0 18 00 79 ... -- CPU_WriteMem(656 bytes @ 0x20000170)  returns 0x290 (0006ms, 0715ms total)
T059C 001:017 JLINK_WriteMem(0x20000400, 0x0170 Bytes, ...) - Data: 10 24 09 E0 00 2C 0A DB 0A 22 00 23 FE F7 B8 FE ... -- CPU_WriteMem(368 bytes @ 0x20000400)  returns 0x170 (0003ms, 0718ms total)
T059C 001:020 JLINK_WriteReg(R0, 0x08001400)  returns 0x00 (0000ms, 0718ms total)
T059C 001:020 JLINK_WriteReg(R1, 0x00000400)  returns 0x00 (0000ms, 0718ms total)
T059C 001:020 JLINK_WriteReg(R2, 0x20000170)  returns 0x00 (0000ms, 0718ms total)
T059C 001:020 JLINK_WriteReg(R3, 0x00000000)  returns 0x00 (0000ms, 0718ms total)
T059C 001:020 JLINK_WriteReg(R4, 0x00000000)  returns 0x00 (0000ms, 0718ms total)
T059C 001:020 JLINK_WriteReg(R5, 0x00000000)  returns 0x00 (0000ms, 0718ms total)
T059C 001:020 JLINK_WriteReg(R6, 0x00000000)  returns 0x00 (0000ms, 0718ms total)
T059C 001:020 JLINK_WriteReg(R7, 0x00000000)  returns 0x00 (0000ms, 0718ms total)
T059C 001:020 JLINK_WriteReg(R8, 0x00000000)  returns 0x00 (0000ms, 0718ms total)
T059C 001:020 JLINK_WriteReg(R9, 0x2000016C)  returns 0x00 (0000ms, 0718ms total)
T059C 001:020 JLINK_WriteReg(R10, 0x00000000)  returns 0x00 (0000ms, 0718ms total)
T059C 001:020 JLINK_WriteReg(R11, 0x00000000)  returns 0x00 (0000ms, 0718ms total)
T059C 001:020 JLINK_WriteReg(R12, 0x00000000)  returns 0x00 (0000ms, 0718ms total)
T059C 001:020 JLINK_WriteReg(R13 (SP), 0x20001000)  returns 0x00 (0000ms, 0718ms total)
T059C 001:020 JLINK_WriteReg(R14, 0x20000001)  returns 0x00 (0000ms, 0718ms total)
T059C 001:020 JLINK_WriteReg(R15 (PC), 0x200000FA)  returns 0x00 (0000ms, 0718ms total)
T059C 001:020 JLINK_WriteReg(XPSR, 0x01000000)  returns 0x00 (0000ms, 0718ms total)
T059C 001:020 JLINK_WriteReg(MSP, 0x20001000)  returns 0x00 (0000ms, 0718ms total)
T059C 001:020 JLINK_WriteReg(PSP, 0x20001000)  returns 0x00 (0000ms, 0718ms total)
T059C 001:020 JLINK_WriteReg(CFBP, 0x00000000)  returns 0x00 (0000ms, 0718ms total)
T059C 001:020 JLINK_SetBPEx(Addr = 0x20000000, Type = 0xFFFFFFF2)  returns 0x0000000A (0000ms, 0718ms total)
T059C 001:020 JLINK_Go() (0003ms, 0721ms total)
T059C 001:023 JLINK_IsHalted()  returns FALSE (0000ms, 0721ms total)
T059C 001:029 JLINK_IsHalted()  returns FALSE (0000ms, 0721ms total)
T059C 001:031 JLINK_IsHalted()  returns FALSE (0000ms, 0721ms total)
T059C 001:033 JLINK_IsHalted()  returns FALSE (0000ms, 0721ms total)
T059C 001:035 JLINK_IsHalted()  returns FALSE (0000ms, 0721ms total)
T059C 001:037 JLINK_IsHalted()  returns FALSE (0000ms, 0721ms total)
T059C 001:039 JLINK_IsHalted()  returns FALSE (0000ms, 0721ms total)
T059C 001:041 JLINK_IsHalted() -- CPU_ReadMem(2 bytes @ 0x20000000)  returns TRUE (0005ms, 0726ms total)
T059C 001:046 JLINK_ReadReg(R15 (PC))  returns 0x20000000 (0000ms, 0721ms total)
T059C 001:046 JLINK_ClrBPEx(BPHandle = 0x0000000A)  returns 0x00 (0000ms, 0721ms total)
T059C 001:046 JLINK_ReadReg(R0)  returns 0x00000000 (0000ms, 0721ms total)
T059C 001:046 JLINK_WriteMem(0x20000170, 0x0290 Bytes, ...) - Data: 13 DC 58 28 7D D0 09 DC 00 28 7B D0 45 28 F6 D0 ... -- CPU_WriteMem(656 bytes @ 0x20000170)  returns 0x290 (0005ms, 0726ms total)
T059C 001:051 JLINK_WriteMem(0x20000400, 0x0170 Bytes, ...) - Data: 84 43 00 E0 01 27 01 98 87 42 01 DD 38 1A 00 E0 ... -- CPU_WriteMem(368 bytes @ 0x20000400)  returns 0x170 (0004ms, 0730ms total)
T059C 001:055 JLINK_WriteReg(R0, 0x08001800)  returns 0x00 (0000ms, 0730ms total)
T059C 001:055 JLINK_WriteReg(R1, 0x00000400)  returns 0x00 (0000ms, 0730ms total)
T059C 001:055 JLINK_WriteReg(R2, 0x20000170)  returns 0x00 (0000ms, 0730ms total)
T059C 001:055 JLINK_WriteReg(R3, 0x00000000)  returns 0x00 (0000ms, 0730ms total)
T059C 001:055 JLINK_WriteReg(R4, 0x00000000)  returns 0x00 (0000ms, 0730ms total)
T059C 001:055 JLINK_WriteReg(R5, 0x00000000)  returns 0x00 (0000ms, 0730ms total)
T059C 001:055 JLINK_WriteReg(R6, 0x00000000)  returns 0x00 (0000ms, 0730ms total)
T059C 001:055 JLINK_WriteReg(R7, 0x00000000)  returns 0x00 (0000ms, 0730ms total)
T059C 001:055 JLINK_WriteReg(R8, 0x00000000)  returns 0x00 (0000ms, 0730ms total)
T059C 001:055 JLINK_WriteReg(R9, 0x2000016C)  returns 0x00 (0000ms, 0730ms total)
T059C 001:055 JLINK_WriteReg(R10, 0x00000000)  returns 0x00 (0000ms, 0730ms total)
T059C 001:055 JLINK_WriteReg(R11, 0x00000000)  returns 0x00 (0000ms, 0730ms total)
T059C 001:055 JLINK_WriteReg(R12, 0x00000000)  returns 0x00 (0000ms, 0730ms total)
T059C 001:055 JLINK_WriteReg(R13 (SP), 0x20001000)  returns 0x00 (0000ms, 0730ms total)
T059C 001:055 JLINK_WriteReg(R14, 0x20000001)  returns 0x00 (0000ms, 0730ms total)
T059C 001:055 JLINK_WriteReg(R15 (PC), 0x200000FA)  returns 0x00 (0000ms, 0730ms total)
T059C 001:055 JLINK_WriteReg(XPSR, 0x01000000)  returns 0x00 (0000ms, 0730ms total)
T059C 001:055 JLINK_WriteReg(MSP, 0x20001000)  returns 0x00 (0000ms, 0730ms total)
T059C 001:055 JLINK_WriteReg(PSP, 0x20001000)  returns 0x00 (0000ms, 0730ms total)
T059C 001:055 JLINK_WriteReg(CFBP, 0x00000000)  returns 0x00 (0000ms, 0730ms total)
T059C 001:055 JLINK_SetBPEx(Addr = 0x20000000, Type = 0xFFFFFFF2)  returns 0x0000000B (0000ms, 0730ms total)
T059C 001:055 JLINK_Go() (0003ms, 0733ms total)
T059C 001:058 JLINK_IsHalted()  returns FALSE (0000ms, 0733ms total)
T059C 001:060 JLINK_IsHalted()  returns FALSE (0000ms, 0733ms total)
T059C 001:062 JLINK_IsHalted()  returns FALSE (0000ms, 0733ms total)
T059C 001:064 JLINK_IsHalted()  returns FALSE (0000ms, 0733ms total)
T059C 001:066 JLINK_IsHalted()  returns FALSE (0001ms, 0734ms total)
T059C 001:069 JLINK_IsHalted()  returns FALSE (0000ms, 0733ms total)
T059C 001:071 JLINK_IsHalted()  returns FALSE (0000ms, 0733ms total)
T059C 001:073 JLINK_IsHalted()  returns FALSE (0000ms, 0733ms total)
T059C 001:075 JLINK_IsHalted() -- CPU_ReadMem(2 bytes @ 0x20000000)  returns TRUE (0005ms, 0738ms total)
T059C 001:080 JLINK_ReadReg(R15 (PC))  returns 0x20000000 (0000ms, 0733ms total)
T059C 001:080 JLINK_ClrBPEx(BPHandle = 0x0000000B)  returns 0x00 (0000ms, 0733ms total)
T059C 001:080 JLINK_ReadReg(R0)  returns 0x00000000 (0000ms, 0733ms total)
T059C 001:080 JLINK_WriteMem(0x20000170, 0x0290 Bytes, ...) - Data: 13 9A 14 99 05 92 00 22 11 9B 00 92 12 98 15 93 ... -- CPU_WriteMem(656 bytes @ 0x20000170)  returns 0x290 (0005ms, 0738ms total)
T059C 001:085 JLINK_WriteMem(0x20000400, 0x0170 Bytes, ...) - Data: 69 46 0B 48 01 F0 14 FD 00 20 05 90 03 90 06 90 ... -- CPU_WriteMem(368 bytes @ 0x20000400)  returns 0x170 (0004ms, 0742ms total)
T059C 001:089 JLINK_WriteReg(R0, 0x08001C00)  returns 0x00 (0000ms, 0742ms total)
T059C 001:089 JLINK_WriteReg(R1, 0x00000400)  returns 0x00 (0000ms, 0742ms total)
T059C 001:089 JLINK_WriteReg(R2, 0x20000170)  returns 0x00 (0000ms, 0742ms total)
T059C 001:089 JLINK_WriteReg(R3, 0x00000000)  returns 0x00 (0000ms, 0742ms total)
T059C 001:089 JLINK_WriteReg(R4, 0x00000000)  returns 0x00 (0000ms, 0742ms total)
T059C 001:089 JLINK_WriteReg(R5, 0x00000000)  returns 0x00 (0000ms, 0742ms total)
T059C 001:089 JLINK_WriteReg(R6, 0x00000000)  returns 0x00 (0000ms, 0742ms total)
T059C 001:089 JLINK_WriteReg(R7, 0x00000000)  returns 0x00 (0000ms, 0742ms total)
T059C 001:089 JLINK_WriteReg(R8, 0x00000000)  returns 0x00 (0000ms, 0742ms total)
T059C 001:089 JLINK_WriteReg(R9, 0x2000016C)  returns 0x00 (0000ms, 0742ms total)
T059C 001:089 JLINK_WriteReg(R10, 0x00000000)  returns 0x00 (0000ms, 0742ms total)
T059C 001:089 JLINK_WriteReg(R11, 0x00000000)  returns 0x00 (0000ms, 0742ms total)
T059C 001:089 JLINK_WriteReg(R12, 0x00000000)  returns 0x00 (0000ms, 0742ms total)
T059C 001:089 JLINK_WriteReg(R13 (SP), 0x20001000)  returns 0x00 (0000ms, 0742ms total)
T059C 001:089 JLINK_WriteReg(R14, 0x20000001)  returns 0x00 (0000ms, 0742ms total)
T059C 001:089 JLINK_WriteReg(R15 (PC), 0x200000FA)  returns 0x00 (0000ms, 0742ms total)
T059C 001:089 JLINK_WriteReg(XPSR, 0x01000000)  returns 0x00 (0000ms, 0742ms total)
T059C 001:089 JLINK_WriteReg(MSP, 0x20001000)  returns 0x00 (0000ms, 0742ms total)
T059C 001:089 JLINK_WriteReg(PSP, 0x20001000)  returns 0x00 (0000ms, 0742ms total)
T059C 001:089 JLINK_WriteReg(CFBP, 0x00000000)  returns 0x00 (0000ms, 0742ms total)
T059C 001:089 JLINK_SetBPEx(Addr = 0x20000000, Type = 0xFFFFFFF2)  returns 0x0000000C (0000ms, 0742ms total)
T059C 001:089 JLINK_Go() (0002ms, 0744ms total)
T059C 001:091 JLINK_IsHalted()  returns FALSE (0001ms, 0745ms total)
T059C 001:095 JLINK_IsHalted()  returns FALSE (0001ms, 0745ms total)
T059C 001:098 JLINK_IsHalted()  returns FALSE (0000ms, 0744ms total)
T059C 001:100 JLINK_IsHalted()  returns FALSE (0000ms, 0744ms total)
T059C 001:102 JLINK_IsHalted()  returns FALSE (0000ms, 0744ms total)
T059C 001:104 JLINK_IsHalted()  returns FALSE (0000ms, 0744ms total)
T059C 001:106 JLINK_IsHalted()  returns FALSE (0000ms, 0744ms total)
T059C 001:108 JLINK_IsHalted() -- CPU_ReadMem(2 bytes @ 0x20000000)  returns TRUE (0005ms, 0749ms total)
T059C 001:113 JLINK_ReadReg(R15 (PC))  returns 0x20000000 (0000ms, 0744ms total)
T059C 001:113 JLINK_ClrBPEx(BPHandle = 0x0000000C)  returns 0x00 (0000ms, 0744ms total)
T059C 001:113 JLINK_ReadReg(R0)  returns 0x00000000 (0000ms, 0744ms total)
T059C 001:113 JLINK_WriteMem(0x20000170, 0x0290 Bytes, ...) - Data: 89 18 48 60 79 48 00 68 C0 00 13 46 C0 18 42 68 ... -- CPU_WriteMem(656 bytes @ 0x20000170)  returns 0x290 (0006ms, 0750ms total)
T059C 001:119 JLINK_WriteMem(0x20000400, 0x0170 Bytes, ...) - Data: 55 FF 04 22 A2 49 0C 31 A2 48 08 30 FD F7 4E FF ... -- CPU_WriteMem(368 bytes @ 0x20000400)  returns 0x170 (0003ms, 0753ms total)
T059C 001:122 JLINK_WriteReg(R0, 0x08002000)  returns 0x00 (0000ms, 0753ms total)
T059C 001:122 JLINK_WriteReg(R1, 0x00000400)  returns 0x00 (0000ms, 0753ms total)
T059C 001:122 JLINK_WriteReg(R2, 0x20000170)  returns 0x00 (0000ms, 0753ms total)
T059C 001:122 JLINK_WriteReg(R3, 0x00000000)  returns 0x00 (0000ms, 0753ms total)
T059C 001:122 JLINK_WriteReg(R4, 0x00000000)  returns 0x00 (0000ms, 0753ms total)
T059C 001:122 JLINK_WriteReg(R5, 0x00000000)  returns 0x00 (0000ms, 0753ms total)
T059C 001:122 JLINK_WriteReg(R6, 0x00000000)  returns 0x00 (0000ms, 0753ms total)
T059C 001:122 JLINK_WriteReg(R7, 0x00000000)  returns 0x00 (0000ms, 0753ms total)
T059C 001:122 JLINK_WriteReg(R8, 0x00000000)  returns 0x00 (0000ms, 0753ms total)
T059C 001:122 JLINK_WriteReg(R9, 0x2000016C)  returns 0x00 (0000ms, 0753ms total)
T059C 001:122 JLINK_WriteReg(R10, 0x00000000)  returns 0x00 (0000ms, 0753ms total)
T059C 001:122 JLINK_WriteReg(R11, 0x00000000)  returns 0x00 (0000ms, 0753ms total)
T059C 001:122 JLINK_WriteReg(R12, 0x00000000)  returns 0x00 (0000ms, 0753ms total)
T059C 001:122 JLINK_WriteReg(R13 (SP), 0x20001000)  returns 0x00 (0000ms, 0753ms total)
T059C 001:122 JLINK_WriteReg(R14, 0x20000001)  returns 0x00 (0000ms, 0753ms total)
T059C 001:122 JLINK_WriteReg(R15 (PC), 0x200000FA)  returns 0x00 (0000ms, 0753ms total)
T059C 001:122 JLINK_WriteReg(XPSR, 0x01000000)  returns 0x00 (0000ms, 0753ms total)
T059C 001:122 JLINK_WriteReg(MSP, 0x20001000)  returns 0x00 (0000ms, 0753ms total)
T059C 001:122 JLINK_WriteReg(PSP, 0x20001000)  returns 0x00 (0000ms, 0753ms total)
T059C 001:122 JLINK_WriteReg(CFBP, 0x00000000)  returns 0x00 (0000ms, 0753ms total)
T059C 001:122 JLINK_SetBPEx(Addr = 0x20000000, Type = 0xFFFFFFF2)  returns 0x0000000D (0000ms, 0753ms total)
T059C 001:122 JLINK_Go() (0002ms, 0755ms total)
T059C 001:125 JLINK_IsHalted()  returns FALSE (0000ms, 0756ms total)
T059C 001:130 JLINK_IsHalted()  returns FALSE (0000ms, 0756ms total)
T059C 001:132 JLINK_IsHalted()  returns FALSE (0000ms, 0756ms total)
T059C 001:134 JLINK_IsHalted()  returns FALSE (0000ms, 0756ms total)
T059C 001:136 JLINK_IsHalted()  returns FALSE (0000ms, 0756ms total)
T059C 001:138 JLINK_IsHalted()  returns FALSE (0001ms, 0757ms total)
T059C 001:142 JLINK_IsHalted() -- CPU_ReadMem(2 bytes @ 0x20000000)  returns TRUE (0004ms, 0760ms total)
T059C 001:146 JLINK_ReadReg(R15 (PC))  returns 0x20000000 (0000ms, 0756ms total)
T059C 001:146 JLINK_ClrBPEx(BPHandle = 0x0000000D)  returns 0x00 (0000ms, 0756ms total)
T059C 001:146 JLINK_ReadReg(R0)  returns 0x00000000 (0000ms, 0756ms total)
T059C 001:146 JLINK_WriteMem(0x20000170, 0x0290 Bytes, ...) - Data: 04 22 47 49 18 31 47 48 10 30 FD F7 97 FE 04 22 ... -- CPU_WriteMem(656 bytes @ 0x20000170)  returns 0x290 (0007ms, 0763ms total)
T059C 001:153 JLINK_WriteMem(0x20000400, 0x0170 Bytes, ...) - Data: 09 68 C9 00 89 18 48 60 5D 48 00 68 C0 00 13 46 ... -- CPU_WriteMem(368 bytes @ 0x20000400)  returns 0x170 (0003ms, 0766ms total)
T059C 001:156 JLINK_WriteReg(R0, 0x08002400)  returns 0x00 (0000ms, 0766ms total)
T059C 001:156 JLINK_WriteReg(R1, 0x00000400)  returns 0x00 (0000ms, 0766ms total)
T059C 001:156 JLINK_WriteReg(R2, 0x20000170)  returns 0x00 (0000ms, 0766ms total)
T059C 001:156 JLINK_WriteReg(R3, 0x00000000)  returns 0x00 (0000ms, 0766ms total)
T059C 001:156 JLINK_WriteReg(R4, 0x00000000)  returns 0x00 (0000ms, 0766ms total)
T059C 001:156 JLINK_WriteReg(R5, 0x00000000)  returns 0x00 (0000ms, 0766ms total)
T059C 001:156 JLINK_WriteReg(R6, 0x00000000)  returns 0x00 (0000ms, 0766ms total)
T059C 001:156 JLINK_WriteReg(R7, 0x00000000)  returns 0x00 (0000ms, 0766ms total)
T059C 001:156 JLINK_WriteReg(R8, 0x00000000)  returns 0x00 (0000ms, 0766ms total)
T059C 001:156 JLINK_WriteReg(R9, 0x2000016C)  returns 0x00 (0000ms, 0766ms total)
T059C 001:156 JLINK_WriteReg(R10, 0x00000000)  returns 0x00 (0000ms, 0766ms total)
T059C 001:156 JLINK_WriteReg(R11, 0x00000000)  returns 0x00 (0000ms, 0766ms total)
T059C 001:156 JLINK_WriteReg(R12, 0x00000000)  returns 0x00 (0000ms, 0766ms total)
T059C 001:156 JLINK_WriteReg(R13 (SP), 0x20001000)  returns 0x00 (0000ms, 0766ms total)
T059C 001:156 JLINK_WriteReg(R14, 0x20000001)  returns 0x00 (0000ms, 0766ms total)
T059C 001:156 JLINK_WriteReg(R15 (PC), 0x200000FA)  returns 0x00 (0000ms, 0766ms total)
T059C 001:156 JLINK_WriteReg(XPSR, 0x01000000)  returns 0x00 (0000ms, 0766ms total)
T059C 001:156 JLINK_WriteReg(MSP, 0x20001000)  returns 0x00 (0000ms, 0766ms total)
T059C 001:156 JLINK_WriteReg(PSP, 0x20001000)  returns 0x00 (0000ms, 0766ms total)
T059C 001:156 JLINK_WriteReg(CFBP, 0x00000000)  returns 0x00 (0000ms, 0766ms total)
T059C 001:156 JLINK_SetBPEx(Addr = 0x20000000, Type = 0xFFFFFFF2)  returns 0x0000000E (0000ms, 0766ms total)
T059C 001:156 JLINK_Go() (0002ms, 0768ms total)
T059C 001:158 JLINK_IsHalted()  returns FALSE (0001ms, 0769ms total)
T059C 001:161 JLINK_IsHalted()  returns FALSE (0001ms, 0769ms total)
T059C 001:164 JLINK_IsHalted()  returns FALSE (0001ms, 0769ms total)
T059C 001:167 JLINK_IsHalted()  returns FALSE (0000ms, 0768ms total)
T059C 001:169 JLINK_IsHalted()  returns FALSE (0000ms, 0768ms total)
T059C 001:170 JLINK_IsHalted()  returns FALSE (0001ms, 0769ms total)
T059C 001:172 JLINK_IsHalted()  returns FALSE (0001ms, 0769ms total)
T059C 001:175 JLINK_IsHalted()  returns FALSE (0000ms, 0768ms total)
T059C 001:179 JLINK_IsHalted() -- CPU_ReadMem(2 bytes @ 0x20000000)  returns TRUE (0005ms, 0773ms total)
T059C 001:184 JLINK_ReadReg(R15 (PC))  returns 0x20000000 (0000ms, 0768ms total)
T059C 001:184 JLINK_ClrBPEx(BPHandle = 0x0000000E)  returns 0x00 (0000ms, 0768ms total)
T059C 001:184 JLINK_ReadReg(R0)  returns 0x00000000 (0000ms, 0768ms total)
T059C 001:184 JLINK_WriteMem(0x20000170, 0x0290 Bytes, ...) - Data: 65 78 69 73 74 0D 0A 00 02 00 00 20 14 00 00 20 ... -- CPU_WriteMem(656 bytes @ 0x20000170)  returns 0x290 (0006ms, 0774ms total)
T059C 001:190 JLINK_WriteMem(0x20000400, 0x0170 Bytes, ...) - Data: 29 48 00 78 00 28 2A D1 1E 48 00 78 C0 00 1C 49 ... -- CPU_WriteMem(368 bytes @ 0x20000400)  returns 0x170 (0004ms, 0778ms total)
T059C 001:194 JLINK_WriteReg(R0, 0x08002800)  returns 0x00 (0000ms, 0778ms total)
T059C 001:194 JLINK_WriteReg(R1, 0x00000400)  returns 0x00 (0000ms, 0778ms total)
T059C 001:194 JLINK_WriteReg(R2, 0x20000170)  returns 0x00 (0000ms, 0778ms total)
T059C 001:194 JLINK_WriteReg(R3, 0x00000000)  returns 0x00 (0000ms, 0778ms total)
T059C 001:194 JLINK_WriteReg(R4, 0x00000000)  returns 0x00 (0000ms, 0778ms total)
T059C 001:194 JLINK_WriteReg(R5, 0x00000000)  returns 0x00 (0000ms, 0778ms total)
T059C 001:194 JLINK_WriteReg(R6, 0x00000000)  returns 0x00 (0000ms, 0778ms total)
T059C 001:194 JLINK_WriteReg(R7, 0x00000000)  returns 0x00 (0000ms, 0778ms total)
T059C 001:194 JLINK_WriteReg(R8, 0x00000000)  returns 0x00 (0000ms, 0778ms total)
T059C 001:194 JLINK_WriteReg(R9, 0x2000016C)  returns 0x00 (0000ms, 0778ms total)
T059C 001:194 JLINK_WriteReg(R10, 0x00000000)  returns 0x00 (0000ms, 0778ms total)
T059C 001:194 JLINK_WriteReg(R11, 0x00000000)  returns 0x00 (0000ms, 0778ms total)
T059C 001:194 JLINK_WriteReg(R12, 0x00000000)  returns 0x00 (0000ms, 0778ms total)
T059C 001:194 JLINK_WriteReg(R13 (SP), 0x20001000)  returns 0x00 (0000ms, 0778ms total)
T059C 001:194 JLINK_WriteReg(R14, 0x20000001)  returns 0x00 (0000ms, 0778ms total)
T059C 001:194 JLINK_WriteReg(R15 (PC), 0x200000FA)  returns 0x00 (0000ms, 0778ms total)
T059C 001:194 JLINK_WriteReg(XPSR, 0x01000000)  returns 0x00 (0000ms, 0778ms total)
T059C 001:194 JLINK_WriteReg(MSP, 0x20001000)  returns 0x00 (0000ms, 0778ms total)
T059C 001:194 JLINK_WriteReg(PSP, 0x20001000)  returns 0x00 (0000ms, 0778ms total)
T059C 001:194 JLINK_WriteReg(CFBP, 0x00000000)  returns 0x00 (0000ms, 0778ms total)
T059C 001:194 JLINK_SetBPEx(Addr = 0x20000000, Type = 0xFFFFFFF2)  returns 0x0000000F (0000ms, 0778ms total)
T059C 001:194 JLINK_Go() (0002ms, 0780ms total)
T059C 001:196 JLINK_IsHalted()  returns FALSE (0000ms, 0780ms total)
T059C 001:198 JLINK_IsHalted()  returns FALSE (0001ms, 0781ms total)
T059C 001:201 JLINK_IsHalted()  returns FALSE (0000ms, 0780ms total)
T059C 001:204 JLINK_IsHalted()  returns FALSE (0000ms, 0780ms total)
T059C 001:206 JLINK_IsHalted()  returns FALSE (0000ms, 0780ms total)
T059C 001:208 JLINK_IsHalted()  returns FALSE (0000ms, 0780ms total)
T059C 001:210 JLINK_IsHalted()  returns FALSE (0000ms, 0780ms total)
T059C 001:212 JLINK_IsHalted()  returns FALSE (0000ms, 0780ms total)
T059C 001:214 JLINK_IsHalted() -- CPU_ReadMem(2 bytes @ 0x20000000)  returns TRUE (0004ms, 0784ms total)
T059C 001:218 JLINK_ReadReg(R15 (PC))  returns 0x20000000 (0000ms, 0780ms total)
T059C 001:218 JLINK_ClrBPEx(BPHandle = 0x0000000F)  returns 0x00 (0000ms, 0780ms total)
T059C 001:218 JLINK_ReadReg(R0)  returns 0x00000000 (0000ms, 0780ms total)
T059C 001:219 JLINK_WriteMem(0x20000170, 0x0290 Bytes, ...) - Data: 9D FA 00 20 81 49 08 70 67 E0 00 20 80 49 08 70 ... -- CPU_WriteMem(656 bytes @ 0x20000170)  returns 0x290 (0006ms, 0786ms total)
T059C 001:225 JLINK_WriteMem(0x20000400, 0x0170 Bytes, ...) - Data: 77 72 69 74 65 20 61 64 64 72 20 3A 20 25 38 78 ... -- CPU_WriteMem(368 bytes @ 0x20000400)  returns 0x170 (0003ms, 0789ms total)
T059C 001:228 JLINK_WriteReg(R0, 0x08002C00)  returns 0x00 (0000ms, 0789ms total)
